 ****** HSPICE -- D-2010.03-SP1 32-BIT (May 26 2010) winnt ******               
  Copyright (C) 2010 Synopsys, Inc. All Rights Reserved.                        
  Unpublished-rights reserved under US copyright laws.
  This program is protected by law and is subject to the 
  terms and conditions of the license agreement from Synopsys.
  Use of this program is your acceptance to be bound by the 
  license agreement. HSPICE is the trademark of Synopsys, Inc.
  Input File: d:\aut\mt_hw02\sram\main.sp                                       
  lic:  
  lic: FLEXlm: v8.5b 
  lic: USER:   NOVINSYSTEM          HOSTNAME: NOVINSYSTEM-PC 
  lic: HOSTID: 00241d50ceae         PID:      3004 
  lic: Using FLEXlm license file: 
  lic: 27000@elena 
  lic: Checkout 1 hspice 
  lic: License/Maintenance for hspice will expire on 31-dec-2020/2007.9 
  lic: NODE LOCKED license on hostid 00241d50ceae 
  lic:   
 Init: read install configuration file: C:\synopsys\Hspice_D-2010.03-SP1\meta.cfg
1****** HSPICE -- D-2010.03-SP1 32-BIT (May 26 2010) winnt ******               
 ******  
 * **************************************************

  ******  circuit name directory
 circuit number to circuit name directory
   number circuitname                     definition         multiplier
        0 main circuit
        1 xnot1.                          not                1.00 
        2 xnot2.                          not                1.00 
        3 xdecoder.                       decoder            1.00 
        4 xword1.                         word               1.00 
        5 xword2.                         word               1.00 
        6 xword3.                         word               1.00 
        7 xword1.xsram1.                  sram_cell          1.00 
        8 xword1.xsram2.                  sram_cell          1.00 
        9 xword1.xsram3.                  sram_cell          1.00 
       10 xword2.xsram1.                  sram_cell          1.00 
       11 xword2.xsram2.                  sram_cell          1.00 
       12 xword2.xsram3.                  sram_cell          1.00 
       13 xword3.xsram1.                  sram_cell          1.00 
       14 xword3.xsram2.                  sram_cell          1.00 
       15 xword3.xsram3.                  sram_cell          1.00 
  **warning** (d:\aut\mt_hw02\sram\main.sp:24) Both nodes of element vgnd are connected together; Line ignored.
  **info** (d:\aut\mt_hw02\sram\main.sp:59) DC voltage reset to initial transient source value              in source        0:v_wl1               new dc=  0.0000D+00
 Warning:  Acde = 1 may be too small in BSIM4 model nmos with w=7.2e-007 l=3.6e-007.

 Warning:  Acde = 1 may be too small in BSIM4 model nmos with w=1.44e-006 l=3.6e-007.

 Warning:  Acde = 1 may be too small in BSIM4 model pmos with w=1.8e-006 l=3.6e-007.

 
  **warning** (d:\aut\mt_hw02\sram\main.sp:67) No connections on node bl_2; Node ignored.
  **warning** (d:\aut\mt_hw02\sram\SRAM_Cell\Cell.sp:17) Only 1 connection at node bl11 called in element xword1.xsram1.m6.

 **warning** the following singular supplies were terminated to 1 meg resistor 
   supply       node1            node2
  v_bl1                   0:bl1              defined in subckt 0                     0:0                defined in subckt 0               
  ic3                     0:bl_1             defined in subckt 0                     0:                 defined in subckt 0               
  v_blnot1                0:blnot1           defined in subckt 0                     0:0                defined in subckt 0               
  v_in33                  0:in33             defined in subckt 0                     0:0                defined in subckt 0               
      
 **info** set option symb=1 internally to help for convergence.
 *****************************************************************
 ******  option summary
 ******
 runlvl  = 5         bypass  = 2         
  Opening plot unit= 79
 file=d:\aut\mt_hw02\sram\main.pa0                                             

1****** HSPICE -- D-2010.03-SP1 32-BIT (May 26 2010) winnt ******               
 ******  
 * **************************************************

  ******  operating point information tnom=  25.000 temp=  25.000 *****
 ***** operating point status is all       simulation time is     0.     
     node    =voltage       node    =voltage       node    =voltage

 + 0:bl1     =   0.       0:bl1_not =   1.8000   0:bl2_not = 219.4396m
 + 0:bl3_not = 219.4396m  0:bl_1    =   1.8000   0:bl_2    =   0.     
 + 0:bl_3    =   0.       0:blnot1  =   0.       0:in11    =   0.     
 + 0:in11!   =   1.7490   0:in22    =   0.       0:in22!   =   1.7490 
 + 0:in33    =   0.       0:q1_1    =  85.1581n  0:q1_1not =   1.8000 
 + 0:q1_2    = 668.4716m  0:q1_2not = 668.4716m  0:q1_3    = 668.4716m
 + 0:q1_3not = 668.4716m  0:q2_1    =   1.7441   0:q2_1not =   4.2489m
 + 0:q2_2    = 668.4721m  0:q2_2not = 668.4721m  0:q2_3    = 668.4721m
 + 0:q2_3not = 668.4721m  0:q3_1    =   1.7441   0:q3_1not =   4.2489m
 + 0:q3_2    = 668.4721m  0:q3_2not = 668.4721m  0:q3_3    = 668.4721m
 + 0:q3_3not = 668.4721m  0:vdd     =   1.8000   0:wl1     =   0.     
 + 0:wl2     = 193.9767m  0:wl3     = 193.9767m  0:wl4     =  93.6111m
 + 4:bl11    =  85.0698n  4:bl21    = 108.7424m  4:bl33    = 108.7424m
 + 5:bl11    = 269.0627m  5:bl21    = 267.7146m  5:bl33    = 267.7146m
 + 6:bl11    = 269.0627m  6:bl21    = 267.7146m  6:bl33    = 267.7146m


 ****  voltage sources

 subckt                                                              
 element   0:vdd       0:v_in11    0:v_in22    0:v_in33    0:v_wl1   
  volts       1.8000      0.          0.          0.          0.     
  current    -1.1441m   567.8896n   567.8896n     0.        131.5622u
  power       2.0593m     0.          0.          0.          0.     

 subckt                          
 element   0:v_bl1     0:v_blnot1
  volts       0.          0.     
  current     0.          0.     
  power       0.          0.     

     total voltage source power dissipation=    2.0593m       watts




 **** mosfets


 subckt    xnot1       xnot1       xnot2       xnot2       xdecoder  
 element   1:mp        1:mn        2:mp        2:mn        3:mn11    
 model     0:pmos      0:nmos      0:pmos      0:nmos      0:nmos    
 region        Linear      Cutoff      Linear      Cutoff      Cutoff
  id        -11.0942u    57.5472p   -11.0942u    57.5472p     0.     
  ibs      -8.375e-19   4.404e-19  -8.375e-19   4.404e-19     0.     
  ibd        59.6497f    -1.7590p    59.6497f    -1.7590p     0.     
  vgs        -1.8000      0.         -1.8000      0.          0.     
  vds       -51.0230m     1.7490    -51.0230m     1.7490      0.     
  vbs         0.          0.          0.          0.          0.     
  vth      -418.9569m   469.6332m  -418.9569m   469.6332m   469.9773m
  vdsat      -1.1330     40.2387m    -1.1330     40.2387m    40.2388m
  vod        -1.3810   -469.6332m    -1.3810   -469.6332m  -469.9773m
  beta      166.3605u     1.4938m   166.3605u     1.4938m     1.4931m
  gam eff   488.0000m   528.0000m   488.0000m   528.0000m   528.0000m
  gm          4.0235u     1.4057n     4.0235u     1.4057n     0.     
  gds       212.3644u     4.7596p   212.3644u     4.7596p     2.0217n
  gmb         3.2047u   520.7056p     3.2047u   520.7056p     0.     
  cdtot      11.3241f   434.3190a    11.3241f   434.3190a   643.3722a
  cgtot      18.2401f     2.1354f    18.2401f     2.1354f     2.2430f
  cstot       7.9235f   858.9400a     7.9235f   858.9400a   858.9386a
  cbtot       6.0007f     2.5075f     6.0007f     2.5075f     2.6089f
  cgs         9.9680f   284.1515a     9.9680f   284.1515a   284.1465a
  cgd         8.7055f   176.4422a     8.7055f   176.4422a   284.0913a



 subckt    xdecoder    xdecoder    xdecoder    xdecoder    xdecoder  
 element   3:mn12      3:mp1       3:mn21      3:mn22      3:mp2     
 model     0:nmos      0:pmos      0:nmos      0:nmos      0:pmos    
 region        Cutoff    Saturati      Linear      Cutoff    Saturati
  id          0.       -131.2526u   133.1144u    51.3671p  -130.5597u
  ibs         0.       -8.402e-19   1.860e-19   1.916e-25  -8.399e-19
  ibd         0.          1.8100p  -203.9712f  -203.9714f     1.6160p
  vgs         0.         -1.8000      1.7490      0.         -1.8000 
  vds         0.         -1.8000    193.9767m   193.9767m    -1.6060 
  vbs         0.          0.          0.          0.          0.     
  vth       469.9773m  -418.4981m   469.9389m   469.9390m  -418.5489m
  vdsat      40.2388m    -1.1334    873.3472m    40.2388m    -1.1334 
  vod      -469.9773m    -1.3815      1.2790   -469.9390m    -1.3815 
  beta        1.4931m   166.3954u   785.3855u     1.4932m   166.3915u
  gam eff   528.0000m   488.0000m   528.0000m   528.0000m   488.0000m
  gm          0.        130.0106u    42.2686u     1.2547n   129.1778u
  gds         2.0217n     3.4512u   606.5662u     6.2898p     3.7751u
  gmb         0.         39.7485u    48.9319u   464.8857p    39.5376u
  cdtot     643.3722a     1.3595f     4.1365f   571.1824a     1.4835f
  cgtot       2.2430f    15.0921f     6.4885f     2.1911f    15.1988f
  cstot     858.9386a    10.6058f     3.1597f   858.9398a    10.6056f
  cbtot       2.6089f     4.6325f     2.5129f     2.5887f     4.6482f
  cgs       284.1465a    14.6502f     3.6836f   284.1483a    14.6497f
  cgd       284.0913a   715.2011a     3.0156f   232.1392a   822.6263a



 subckt    xdecoder    xdecoder    xdecoder    xdecoder    xdecoder  
 element   3:mn31      3:mn32      3:mp3       3:mn41      3:mn42    
 model     0:nmos      0:nmos      0:pmos      0:nmos      0:nmos    
 region        Cutoff      Linear    Saturati      Linear      Linear
  id         51.3671p   133.1144u  -130.5597u    68.1067u    68.1067u
  ibs       1.916e-25   1.860e-19  -8.399e-19   1.860e-19   1.860e-19
  ibd      -203.9714f  -203.9712f     1.6160p  -103.3494f  -103.3494f
  vgs         0.          1.7490     -1.8000      1.7490      1.7490 
  vds       193.9767m   193.9767m    -1.6060     93.6111m    93.6111m
  vbs         0.          0.          0.          0.          0.     
  vth       469.9390m   469.9389m  -418.5489m   469.9587m   469.9587m
  vdsat      40.2388m   873.3472m    -1.1334    873.3355m   873.3355m
  vod      -469.9390m     1.2790     -1.3815      1.2790      1.2790 
  beta        1.4932m   785.3855u   166.3915u   785.3761u   785.3761u
  gam eff   528.0000m   528.0000m   488.0000m   528.0000m   528.0000m
  gm          1.2547n    42.2686u   129.1778u    18.5529u    18.5529u
  gds         6.2898p   606.5662u     3.7751u   688.9386u   688.9386u
  gmb       464.8857p    48.9319u    39.5376u    24.3463u    24.3463u
  cdtot     571.1824a     4.1365f     1.4835f     4.4926f     4.4926f
  cgtot       2.1911f     6.4885f    15.1988f     6.5450f     6.5450f
  cstot     858.9398a     3.1597f    10.6056f     2.9647f     2.9647f
  cbtot       2.5887f     2.5129f     4.6482f     2.5762f     2.5762f
  cgs       284.1483a     3.6836f    14.6497f     3.4317f     3.4317f
  cgd       232.1392a     3.0156f   822.6263a     3.3379f     3.3379f



 subckt    xdecoder    xword1.xsr  xword1.xsr  xword1.xsr  xword1.xsr
 element   3:mp4       7:m1        7:m2        7:m3        7:m4      
 model     0:pmos      0:nmos      0:pmos      0:nmos      0:pmos    
 region      Saturati      Cutoff      Linear      Linear      Cutoff
  id       -130.9262u   116.4048p   -35.7089p   132.7697p   -24.9995p
  ibs      -8.400e-19     1.6828a  -8.374e-19   5.631e-19    -1.0609a
  ibd         1.7164p    -1.8100p  -9.340e-19   6.606e-19     1.8100p
  vgs        -1.8000     85.1581n    -1.8000      1.8000   -160.4809n
  vds        -1.7064      1.8000   -160.4809n    85.1581n    -1.8000 
  vbs         0.          0.          0.          0.          0.     
  vth      -418.5226m   469.6225m  -418.9703m   469.9770m  -418.4980m
  vdsat      -1.1334     40.2387m    -1.1330    903.9177m   -41.8620m
  vod        -1.3815   -469.6224m    -1.3810      1.3300    418.4978m
  beta      166.3935u     3.0086m   166.3595u     1.5449m   239.7253u
  gam eff   488.0000m   528.0000m   488.0000m   528.0000m   488.0000m
  gm        129.6611u     2.8433n    12.3882p    28.2060p   626.2534p
  gds         3.5461u     9.8687p   222.5115u     1.5591m     7.1932p
  gmb        39.6503u     1.0533n    10.3026p    44.9975p   196.1993p
  cdtot       1.4290f   867.5343a    11.5677f     9.5573f     1.0829f
  cgtot      15.1537f     4.2917f    18.2714f    13.2071f     4.9765f
  cstot      10.6057f     1.7219f     7.7823f     5.6234f     2.1512f
  cbtot       4.6399f     5.0269f     6.1369f     5.2840f     5.8982f
  cgs        14.6500f   572.3238a     9.7670f     6.4890f   714.2117a
  cgd       777.0552a   354.8900a     8.9430f     7.2036f   442.0561a



 subckt    xword1.xsr  xword1.xsr  xword1.xsr  xword1.xsr  xword1.xsr
 element   7:m5        7:m6        8:m1        8:m2        8:m3      
 model     0:nmos      0:nmos      0:nmos      0:pmos      0:nmos    
 region        Cutoff      Cutoff    Saturati    Saturati    Saturati
  id          0.       -1.785e-19    47.4319u   -47.4404u    47.4319u
  ibs        -1.8001p  -8.535e-20   7.702e-25  -5.905e-22   7.702e-25
  ibd        -1.8100p  -1.182e-19  -678.4716f     1.1415p  -678.4716f
  vgs        -1.8000    -85.1581n   668.4716m    -1.1315    668.4716m
  vds      -152.6453n   -88.3040p   668.4716m    -1.1315    668.4716m
  vbs        -1.8000    -85.1581n     0.          0.          0.     
  vth       855.1683m   469.9774m   469.8455m  -418.6737m   469.8455m
  vdsat      41.1304m    40.2388m   183.4929m  -611.6313m   183.4929m
  vod        -2.6552   -469.9775m   198.6261m  -712.8547m   198.6261m
  beta      921.2574u     1.4931m     2.7273m   214.3674u     2.7273m
  gam eff   528.0000m   528.0000m   528.0000m   488.0000m   528.0000m
  gm          0.          4.3607a   381.4434u   107.5242u   381.4434u
  gds         0.          2.0217n     1.8800u     1.5136u     1.8800u
  gmb         0.          1.6271a   123.9618u    30.8998u   123.9618u
  cdtot     432.5262a   643.3706a     1.1825f     1.4212f     1.1825f
  cgtot       2.0273f     2.2430f    10.3674f    14.8367f    10.3674f
  cstot     586.3195a   858.9402a     7.5366f    10.3766f     7.5366f
  cbtot       2.3413f     2.6089f     4.6707f     5.0674f     4.6707f
  cgs       176.2041a   284.0913a     9.0665f    13.8671f     9.0665f
  cgd       176.2670a   284.1464a   573.0104a   716.4927a   573.0104a



 subckt    xword1.xsr  xword1.xsr  xword1.xsr  xword1.xsr  xword1.xsr
 element   8:m4        8:m5        8:m6        9:m1        9:m2      
 model     0:pmos      0:nmos      0:nmos      0:nmos      0:pmos    
 region      Saturati      Cutoff      Cutoff    Saturati    Saturati
  id        -47.4404u    28.5838f    -1.3253p    47.4319u   -47.4404u
  ibs      -5.905e-22  -219.4965f  -668.5285f   7.702e-25  -5.905e-22
  ibd         1.1415p  -678.4716f  -118.5973f  -678.4716f     1.1415p
  vgs        -1.1315   -219.4396m  -668.4716m   668.4716m    -1.1315 
  vds        -1.1315    449.0320m  -559.7292m   668.4716m    -1.1315 
  vbs         0.       -219.4396m  -668.4716m     0.          0.     
  vth      -418.6737m   529.9129m   500.4005m   469.8455m  -418.6737m
  vdsat    -611.6313m    40.7984m    40.5494m   183.4929m  -611.6313m
  vod      -712.8547m  -749.3525m    -1.1689    198.6261m  -712.8547m
  beta      214.3674u     1.3841m     1.4369m     2.7273m   214.3674u
  gam eff   488.0000m   528.0000m   528.0000m   528.0000m   488.0000m
  gm        107.5242u   729.2729f    33.1775p   381.4434u   107.5242u
  gds         1.5136u     2.1187f    93.9471f     1.8800u     1.5136u
  gmb        30.8998u   267.2190f    12.2573p   123.9618u    30.8998u
  cdtot       1.4212f   493.5197a   599.9877a     1.1825f     1.4212f
  cgtot      14.8367f     2.0917f     2.1172f    10.3674f    14.8367f
  cstot      10.3766f   765.8777a   675.8205a     7.5366f    10.3766f
  cbtot       5.0674f     2.5174f     2.5083f     4.6707f     5.0674f
  cgs        13.8671f   227.1984a   189.6849a     9.0665f    13.8671f
  cgd       716.4927a   189.6849a   252.6850a   573.0104a   716.4927a



 subckt    xword1.xsr  xword1.xsr  xword1.xsr  xword1.xsr  xword2.xsr
 element   9:m3        9:m4        9:m5        9:m6       10:m1      
 model     0:nmos      0:pmos      0:nmos      0:nmos      0:nmos    
 region      Saturati    Saturati      Cutoff      Cutoff      Linear
  id         47.4319u   -47.4404u    28.5838f    -1.3253p     6.5269u
  ibs       7.702e-25  -5.905e-22  -219.4965f  -668.5285f   3.609e-19
  ibd      -678.4716f     1.1415p  -678.4716f  -118.5973f    -5.7727f
  vgs       668.4716m    -1.1315   -219.4396m  -668.4716m     1.7441 
  vds       668.4716m    -1.1315    449.0320m  -559.7292m     4.2489m
  vbs         0.          0.       -219.4396m  -668.4716m     0.     
  vth       469.8455m  -418.6737m   529.9129m   500.4005m   469.9763m
  vdsat     183.4929m  -611.6313m    40.7984m    40.5494m   870.4331m
  vod       198.6261m  -712.8547m  -749.3525m    -1.1689      1.2741 
  beta        2.7273m   214.3674u     1.3841m     1.4369m     1.5854m
  gam eff   528.0000m   488.0000m   528.0000m   528.0000m   528.0000m
  gm        381.4434u   107.5242u   729.2729f    33.1775p     1.5536u
  gds         1.8800u     1.5136u     2.1187f    93.9471f     1.5326m
  gmb       123.9618u    30.8998u   267.2190f    12.2573p     2.2834u
  cdtot       1.1825f     1.4212f   493.5197a   599.9877a     9.5128f
  cgtot      10.3674f    14.8367f     2.0917f     2.1172f    13.2267f
  cstot       7.5366f    10.3766f   765.8777a   675.8205a     5.6545f
  cbtot       4.6707f     5.0674f     2.5174f     2.5083f     5.2795f
  cgs         9.0665f    13.8671f   227.1984a   189.6849a     6.5352f
  cgd       573.0104a   716.4927a   189.6849a   252.6850a     7.1649f



 subckt    xword2.xsr  xword2.xsr  xword2.xsr  xword2.xsr  xword2.xsr
 element  10:m2       10:m3       10:m4       10:m5       10:m6      
 model     0:pmos      0:nmos      0:pmos      0:nmos      0:nmos    
 region        Cutoff      Cutoff      Linear      Cutoff      Cutoff
  id       -100.9277p   128.5284p   -12.1133u    -5.4368n  -791.0479f
  ibs      -4.728e-19   7.808e-19  -8.065e-19    -1.8001p    -1.7441p
  ibd         1.8058p    -1.7541p    64.7866f    -5.7731f  -279.0624f
  vgs       -55.9216m     4.2489m    -1.7958     -1.6060     -1.5501 
  vds        -1.7958      1.7441    -55.9216m    -1.7958     -1.4750 
  vbs         0.          0.          0.         -1.8000     -1.7441 
  vth      -418.4994m   469.6339m  -418.9556m   470.8497m   542.4740m
  vdsat     -41.8721m    40.2388m    -1.1298     40.3752m    40.8913m
  vod       362.5777m  -465.3850m    -1.3768     -2.0769     -2.0926 
  beta      239.7319u     3.0086m   166.6111u     1.4913m     1.3622m
  gam eff   488.0000m   528.0000m   488.0000m   528.0000m   528.0000m
  gm          2.5118n     3.1387n     4.4374u   128.2443n    20.3221p
  gds        28.8786p    10.6051p   211.0473u   458.4851p    58.0923f
  gmb       759.8265p     1.1600n     3.5080u    42.6413n     6.8362p
  cdtot       1.0839f   871.5144a    11.2955f   684.4497a   594.4240a
  cgtot       4.9012f     4.2869f    18.2396f     2.0235f     1.9603f
  cstot       2.1896f     1.7243f     7.9407f   587.2995a   590.3543a
  cbtot       5.7841f     5.0224f     5.9880f     2.2896f     2.2658f
  cgs       752.6081a   574.7657a     9.9934f   177.1841a   177.5094a
  cgd       442.7674a   355.4583a     8.6782f   325.9080a   262.1337a



 subckt    xword2.xsr  xword2.xsr  xword2.xsr  xword2.xsr  xword2.xsr
 element  11:m1       11:m2       11:m3       11:m4       11:m5      
 model     0:nmos      0:pmos      0:nmos      0:pmos      0:nmos    
 region      Saturati    Saturati    Saturati    Saturati      Cutoff
  id         47.4321u   -47.4404u    47.4321u   -47.4404u     4.0229p
  ibs       7.702e-25  -5.905e-22   7.702e-25  -5.905e-22  -219.4965f
