 ****** HSPICE -- D-2010.03-SP1 32-BIT (May 26 2010) winnt ******               
  Copyright (C) 2010 Synopsys, Inc. All Rights Reserved.                        
  Unpublished-rights reserved under US copyright laws.
  This program is protected by law and is subject to the 
  terms and conditions of the license agreement from Synopsys.
  Use of this program is your acceptance to be bound by the 
  license agreement. HSPICE is the trademark of Synopsys, Inc.
  Input File: d:\aut\mt_hw02\dram\main.sp                                       
  lic:  
  lic: FLEXlm: v8.5b 
  lic: USER:   NOVINSYSTEM          HOSTNAME: NOVINSYSTEM-PC 
  lic: HOSTID: 00241d50ceae         PID:      5116 
  lic: Using FLEXlm license file: 
  lic: 27000@elena 
  lic: Checkout 1 hspice 
  lic: License/Maintenance for hspice will expire on 31-dec-2020/2007.9 
  lic: NODE LOCKED license on hostid 00241d50ceae 
  lic:   
 Init: read install configuration file: C:\synopsys\Hspice_D-2010.03-SP1\meta.cfg
1****** HSPICE -- D-2010.03-SP1 32-BIT (May 26 2010) winnt ******               
 ******  
 * **************************************************

  ******  circuit name directory
 circuit number to circuit name directory
   number circuitname                     definition         multiplier
        0 main circuit
        1 xnot1.                          not                1.00 
        2 xnot2.                          not                1.00 
        3 xdecoder.                       decoder            1.00 
        4 xword1.                         word               1.00 
        5 xword2.                         word               1.00 
        6 xword3.                         word               1.00 
        7 xword1.xdram1.                  dram_cell          1.00 
        8 xword1.xdram2.                  dram_cell          1.00 
        9 xword1.xdram3.                  dram_cell          1.00 
       10 xword2.xdram1.                  dram_cell          1.00 
       11 xword2.xdram2.                  dram_cell          1.00 
       12 xword2.xdram3.                  dram_cell          1.00 
       13 xword3.xdram1.                  dram_cell          1.00 
       14 xword3.xdram2.                  dram_cell          1.00 
       15 xword3.xdram3.                  dram_cell          1.00 
  **warning** (d:\aut\mt_hw02\dram\main.sp:24) Both nodes of element vgnd are connected together; Line ignored.
 Warning:  Acde = 1 may be too small in BSIM4 model nmos with w=7.2e-007 l=3.6e-007.

 Warning:  Acde = 1 may be too small in BSIM4 model nmos with w=3e-007 l=2e-007.

 Warning:  Acde = 1 may be too small in BSIM4 model nmos with w=9.52e-007 l=1.8e-007.

 Warning:  Acde = 1 may be too small in BSIM4 model nmos with w=1.62e-006 l=1.8e-007.

 Warning:  Acde = 1 may be too small in BSIM4 model pmos with w=1.8e-006 l=3.6e-007.

 Warning:  Acde = 1 may be too small in BSIM4 model pmos with w=2e-006 l=1.8e-007.

 
  **warning** (d:\aut\mt_hw02\dram\Cell\Cell.sp:21) No connections on node bl_1; Node ignored.
 **warning**  No DC path to ground from node        0:vps1             defined in subckt 0               ; Connected by HSPICE with gdcpath



 **warning** the following singular supplies were terminated to 1 meg resistor 
   supply       node1            node2
  v_in33                  0:in33             defined in subckt 0                     0:0                defined in subckt 0               
  vpc                     0:vps              defined in subckt 0                     0:0                defined in subckt 0               
      
 **info** set option symb=1 internally to help for convergence.
 *****************************************************************
 ******  option summary
 ******
 runlvl  = 5         bypass  = 2         
  Opening plot unit= 79
 file=d:\aut\mt_hw02\dram\main.pa0                                             


 **info** dc convergence failure, 
 resetting dcon option to 1 and retrying

 **info** dc convergence successful
 you can increase the efficiency of the
 operating point calculation by setting dcon= 1
 in the .option statement
1****** HSPICE -- D-2010.03-SP1 32-BIT (May 26 2010) winnt ******               
 ******  
 * **************************************************

  ******  operating point information tnom=  25.000 temp=  25.000 *****
 ***** operating point status is all       simulation time is     0.     
     node    =voltage       node    =voltage       node    =voltage

 + 0:bl1_not =   1.0827   0:bl2_not =   1.0827   0:bl3_not =   1.0827 
 + 0:bl_1    =   0.       0:bl_2    =   0.       0:bl_3    =   0.     
 + 0:in11    =   0.       0:in11!   =   1.7490   0:in22    =   0.     
 + 0:in22!   =   1.7490   0:in33    =   0.       0:vdd     =   1.8000 
 + 0:vps     =   0.       0:vps1    =   1.0513   0:vps2    =   1.0513 
 + 0:vps3    =   1.0513   0:wl1     =   0.       0:wl2     = 193.8078m
 + 0:wl3     = 193.8078m  0:wl4     =  93.6112m  4:bl11    =   1.0827 
 + 4:bl21    =   1.0827   4:bl33    =   1.0827   5:bl11    =   1.0827 
 + 5:bl21    =   1.0827   5:bl33    =   1.0827   6:bl11    =   1.0827 
 + 6:bl21    =   1.0827   6:bl33    =   1.0827   7:1       = 120.2817m
 + 7:3       =   3.0000   7:7       = 120.2818m  8:1       = 120.2817m
 + 8:3       =   3.0000   8:7       = 120.2818m  9:1       = 120.2817m
 + 9:3       =   3.0000   9:7       = 120.2818m 10:1       = 273.9822m
 +10:3       =   3.0000  10:7       = 273.9822m 11:1       = 273.9822m
 +11:3       =   3.0000  11:7       = 273.9822m 12:1       = 273.9822m
 +12:3       =   3.0000  12:7       = 273.9822m 13:1       = 273.9822m
 +13:3       =   3.0000  13:7       = 273.9822m 14:1       = 273.9822m
 +14:3       =   3.0000  14:7       = 273.9822m 15:1       = 273.9822m
 +15:3       =   3.0000  15:7       = 273.9822m


 ****  voltage sources

 subckt                                                              
 element   0:vdd       0:v_in11    0:v_in22    0:v_in33    0:vpc     
  volts       1.8000      0.          0.          0.          0.     
  current  -548.1686u   567.8886n   567.8886n     0.          0.     
  power     986.7035u     0.          0.          0.          0.     

 subckt                xword1.xdr  xword1.xdr  xword1.xdr  xword2.xdr
 element   0:vwl       7:vdd       8:vdd       9:vdd      10:vdd     
  volts       0.          3.0000      3.0000      3.0000      3.0000 
  current   131.2626u  -705.7765u  -705.7765u  -705.7765u  -705.7662u
  power       0.          2.1173m     2.1173m     2.1173m     2.1173m

 subckt    xword2.xdr  xword2.xdr  xword3.xdr  xword3.xdr  xword3.xdr
 element  11:vdd      12:vdd      13:vdd      14:vdd      15:vdd     
  volts       3.0000      3.0000      3.0000      3.0000      3.0000 
  current  -705.7662u  -705.7662u  -705.7662u  -705.7662u  -705.7662u
  power       2.1173m     2.1173m     2.1173m     2.1173m     2.1173m

     total voltage source power dissipation=   20.0425m       watts




 **** mosfets


 subckt    xnot1       xnot1       xnot2       xnot2       xdecoder  
 element   1:mp        1:mn        2:mp        2:mn        3:mn11    
 model     0:pmos      0:nmos      0:pmos      0:nmos      0:nmos    
 region        Linear      Cutoff      Linear      Cutoff      Cutoff
  id        -11.0946u    57.5472p   -11.0946u    57.5472p     0.     
  ibs      -8.375e-19   4.404e-19  -8.375e-19   4.404e-19     0.     
  ibd        59.6514f    -1.7590p    59.6514f    -1.7590p     0.     
  vgs        -1.8000      0.         -1.8000      0.          0.     
  vds       -51.0247m     1.7490    -51.0247m     1.7490      0.     
  vbs         0.          0.          0.          0.          0.     
  vth      -418.9569m   469.6332m  -418.9569m   469.6332m   469.9773m
  vdsat      -1.1330     40.2387m    -1.1330     40.2387m    40.2388m
  vod        -1.3810   -469.6332m    -1.3810   -469.6332m  -469.9773m
  beta      166.3605u     1.4938m   166.3605u     1.4938m     1.4931m
  gam eff   488.0000m   528.0000m   488.0000m   528.0000m   528.0000m
  gm          4.0236u     1.4057n     4.0236u     1.4057n     0.     
  gds       212.3641u     4.7596p   212.3641u     4.7596p     2.0217n
  gmb         3.2048u   520.7056p     3.2048u   520.7056p     0.     
  cdtot      11.3241f   434.3191a    11.3241f   434.3191a   643.3722a
  cgtot      18.2401f     2.1354f    18.2401f     2.1354f     2.2430f
  cstot       7.9235f   858.9400a     7.9235f   858.9400a   858.9386a
  cbtot       6.0007f     2.5075f     6.0007f     2.5075f     2.6089f
  cgs         9.9680f   284.1515a     9.9680f   284.1515a   284.1465a
  cgd         8.7055f   176.4422a     8.7055f   176.4422a   284.0913a



 subckt    xdecoder    xdecoder    xdecoder    xdecoder    xdecoder  
 element   3:mn12      3:mp1       3:mn21      3:mn22      3:mp2     
 model     0:nmos      0:pmos      0:nmos      0:nmos      0:pmos    
 region        Cutoff    Saturati      Linear      Cutoff    Saturati
  id          0.       -131.2526u   133.0120u    51.3660p  -130.5603u
  ibs         0.       -8.402e-19   1.860e-19   1.915e-25  -8.399e-19
  ibd         0.          1.8100p  -203.8024f  -203.8026f     1.6162p
  vgs         0.         -1.8000      1.7490      0.         -1.8000 
  vds         0.         -1.8000    193.8078m   193.8078m    -1.6062 
  vbs         0.          0.          0.          0.          0.     
  vth       469.9773m  -418.4981m   469.9390m   469.9391m  -418.5489m
  vdsat      40.2388m    -1.1334    873.3462m    40.2388m    -1.1334 
  vod      -469.9773m    -1.3815      1.2790   -469.9391m    -1.3815 
  beta        1.4931m   166.3954u   785.3861u     1.4932m   166.3915u
  gam eff   528.0000m   488.0000m   528.0000m   528.0000m   488.0000m
  gm          0.        130.0106u    42.2255u     1.2547n   129.1787u
  gds         2.0217n     3.4512u   606.7039u     6.2969p     3.7746u
  gmb         0.         39.7485u    48.8919u   464.8761p    39.5378u
  cdtot     643.3722a     1.3595f     4.1372f   571.2330a     1.4834f
  cgtot       2.2430f    15.0921f     6.4887f     2.1911f    15.1988f
  cstot     858.9386a    10.6058f     3.1593f   858.9398a    10.6056f
  cbtot       2.6089f     4.6325f     2.5130f     2.5887f     4.6482f
  cgs       284.1465a    14.6502f     3.6831f   284.1483a    14.6497f
  cgd       284.0913a   715.2011a     3.0162f   232.1740a   822.5669a



 subckt    xdecoder    xdecoder    xdecoder    xdecoder    xdecoder  
 element   3:mn31      3:mn32      3:mp3       3:mn41      3:mn42    
 model     0:nmos      0:nmos      0:pmos      0:nmos      0:nmos    
 region        Cutoff      Linear    Saturati      Linear      Linear
  id         51.3660p   133.0120u  -130.5603u    68.1067u    68.1067u
  ibs       1.915e-25   1.860e-19  -8.399e-19   1.860e-19   1.860e-19
  ibd      -203.8026f  -203.8024f     1.6162p  -103.3494f  -103.3494f
  vgs         0.          1.7490     -1.8000      1.7490      1.7490 
  vds       193.8078m   193.8078m    -1.6062     93.6112m    93.6112m
  vbs         0.          0.          0.          0.          0.     
  vth       469.9391m   469.9390m  -418.5489m   469.9587m   469.9587m
  vdsat      40.2388m   873.3462m    -1.1334    873.3345m   873.3345m
  vod      -469.9391m     1.2790     -1.3815      1.2790      1.2790 
  beta        1.4932m   785.3861u   166.3915u   785.3767u   785.3767u
  gam eff   528.0000m   528.0000m   488.0000m   528.0000m   528.0000m
  gm          1.2547n    42.2255u   129.1787u    18.5530u    18.5530u
  gds         6.2969p   606.7039u     3.7746u   688.9382u   688.9382u
  gmb       464.8761p    48.8919u    39.5378u    24.3464u    24.3464u
  cdtot     571.2330a     4.1372f     1.4834f     4.4926f     4.4926f
  cgtot       2.1911f     6.4887f    15.1988f     6.5450f     6.5450f
  cstot     858.9398a     3.1593f    10.6056f     2.9647f     2.9647f
  cbtot       2.5887f     2.5130f     4.6482f     2.5762f     2.5762f
  cgs       284.1483a     3.6831f    14.6497f     3.4317f     3.4317f
  cgd       232.1740a     3.0162f   822.5669a     3.3379f     3.3379f



 subckt    xdecoder    xword1.xdr  xword1.xdr  xword1.xdr  xword1.xdr
 element   3:mp4       7:ma1       7:ma2       7:msn1      7:msp1    
 model     0:pmos      0:nmos      0:nmos      0:nmos      0:pmos    
 region      Saturati      Cutoff      Cutoff    Saturati    Saturati
  id       -130.9262u   748.5037f   748.5043f   352.8192u  -352.2425u
  ibs      -8.400e-19  -120.3052f  -120.3053f   9.900e-23    -1.2191a
  ibd         1.7164p    -1.0927p    -1.0927p    -1.0927p     1.9273p
  vgs        -1.8000   -120.2817m  -120.2818m     1.0827     -1.9173 
  vds        -1.7064    962.4317m   962.4529m     1.0827     -1.9173 
  vbs         0.       -120.2817m  -120.2818m     0.          0.     
  vth      -418.5226m   502.6298m   502.6298m   468.3784m  -415.1256m
  vdsat      -1.1334     40.8055m    40.8055m   433.6233m    -1.2074 
  vod        -1.3815   -622.9116m  -622.9116m   614.3350m    -1.5022 
  beta      166.3935u     1.1281m     1.1281m     3.1609m   387.7411u
  gam eff   488.0000m   528.0000m   528.0000m   528.0000m   488.0000m
  gm        129.6611u    18.7787p    18.7787p   779.1183u   304.2138u
  gds         3.5461u    75.5892f    75.5894f    15.0614u    13.8399u
  gmb        39.6503u     6.9297p     6.9297p   310.5162u    95.4363u
  cdtot       1.4290f   191.8392a   191.8387a   749.8630a     1.4935f
  cgtot      15.1537f   533.5706a   533.5705a     3.8860f     8.8429f
  cstot      10.6057f   332.7130a   332.7130a     3.0994f     6.7963f
  cbtot       4.6399f   706.0059a   706.0055a     1.9484f     3.5722f
  cgs        14.6500f   101.9352a   101.9352a     3.4395f     8.2367f
  cgd       777.0552a    74.1292a    74.1291a   373.2969a   782.5685a



 subckt    xword1.xdr  xword1.xdr  xword1.xdr  xword1.xdr  xword1.xdr
 element   7:msn2      7:msp2      7:mpc       8:ma1       8:ma2     
 model     0:nmos      0:pmos      0:nmos      0:nmos      0:nmos    
 region      Saturati    Saturati      Cutoff      Cutoff      Cutoff
  id        352.8355u  -352.2363u   -17.3072a   748.5037f   748.5043f
  ibs       9.903e-23    -1.2188a    -1.0829p  -120.3052f  -120.3053f
  ibd        -1.0927p     1.9273p    -1.0927p    -1.0927p    -1.0927p
  vgs         1.0827     -1.9173    -31.3922m  -120.2817m  -120.2818m
  vds         1.0827     -1.9173    -21.2500u   962.4317m   962.4529m
  vbs         0.          0.         -1.0827   -120.2817m  -120.2818m
  vth       468.3785m  -415.1256m   723.9671m   502.6298m   502.6298m
  vdsat     433.6355m    -1.2074     41.7292m    40.8055m    40.8055m
  vod       614.3563m    -1.5021   -755.3593m  -622.9116m  -622.9116m
  beta        3.1608m   387.7439u     5.3539m     1.1281m     1.1281m
  gam eff   528.0000m   488.0000m   528.0000m   528.0000m   528.0000m
  gm        779.1210u   304.2141u   483.0099a    18.7787p    18.7787p
  gds        15.0623u    13.8400u   814.2256f    75.5892f    75.5894f
  gmb       310.5200u    95.4363u   121.3573a     6.9297p     6.9297p
  cdtot     749.8806a     1.4934f     1.2590f   191.8392a   191.8387a
  cgtot       3.8861f     8.8429f     2.4290f   533.5706a   533.5705a
  cstot       3.0994f     6.7963f     1.6404f   332.7130a   332.7130a
  cbtot       1.9484f     3.5722f     2.8348f   706.0059a   706.0055a
  cgs         3.4395f     8.2367f   623.3875a   101.9352a   101.9352a
  cgd       373.3132a   782.5341a   623.4440a    74.1292a    74.1291a



 subckt    xword1.xdr  xword1.xdr  xword1.xdr  xword1.xdr  xword1.xdr
 element   8:msn1      8:msp1      8:msn2      8:msp2      8:mpc     
 model     0:nmos      0:pmos      0:nmos      0:pmos      0:nmos    
 region      Saturati    Saturati    Saturati    Saturati      Cutoff
  id        352.8192u  -352.2425u   352.8355u  -352.2363u   -17.3068a
  ibs       9.900e-23    -1.2191a   9.903e-23    -1.2188a    -1.0829p
  ibd        -1.0927p     1.9273p    -1.0927p     1.9273p    -1.0927p
  vgs         1.0827     -1.9173      1.0827     -1.9173    -31.3929m
  vds         1.0827     -1.9173      1.0827     -1.9173    -21.2500u
  vbs         0.          0.          0.          0.         -1.0827 
  vth       468.3784m  -415.1256m   468.3785m  -415.1256m   723.9671m
  vdsat     433.6233m    -1.2074    433.6355m    -1.2074     41.7292m
  vod       614.3350m    -1.5022    614.3563m    -1.5021   -755.3601m
  beta        3.1609m   387.7411u     3.1608m   387.7439u     5.3539m
  gam eff   528.0000m   488.0000m   528.0000m   488.0000m   528.0000m
  gm        779.1183u   304.2138u   779.1210u   304.2141u   482.9992a
  gds        15.0614u    13.8399u    15.0623u    13.8400u   814.2077f
  gmb       310.5162u    95.4363u   310.5200u    95.4363u   121.3546a
  cdtot     749.8630a     1.4935f   749.8806a     1.4934f     1.2590f
  cgtot       3.8860f     8.8429f     3.8861f     8.8429f     2.4290f
  cstot       3.0994f     6.7963f     3.0994f     6.7963f     1.6404f
  cbtot       1.9484f     3.5722f     1.9484f     3.5722f     2.8348f
  cgs         3.4395f     8.2367f     3.4395f     8.2367f   623.3870a
  cgd       373.2969a   782.5685a   373.3132a   782.5341a   623.4435a



 subckt    xword1.xdr  xword1.xdr  xword1.xdr  xword1.xdr  xword1.xdr
 element   9:ma1       9:ma2       9:msn1      9:msp1      9:msn2    
 model     0:nmos      0:nmos      0:nmos      0:pmos      0:nmos    
 region        Cutoff      Cutoff    Saturati    Saturati    Saturati
  id        748.5037f   748.5043f   352.8192u  -352.2425u   352.8355u
  ibs      -120.3052f  -120.3053f   9.900e-23    -1.2191a   9.903e-23
  ibd        -1.0927p    -1.0927p    -1.0927p     1.9273p    -1.0927p
  vgs      -120.2817m  -120.2818m     1.0827     -1.9173      1.0827 
  vds       962.4317m   962.4529m     1.0827     -1.9173      1.0827 
  vbs      -120.2817m  -120.2818m     0.          0.          0.     
  vth       502.6298m   502.6298m   468.3784m  -415.1256m   468.3785m
  vdsat      40.8055m    40.8055m   433.6233m    -1.2074    433.6355m
  vod      -622.9116m  -622.9116m   614.3350m    -1.5022    614.3563m
  beta        1.1281m     1.1281m     3.1609m   387.7411u     3.1608m
  gam eff   528.0000m   528.0000m   528.0000m   488.0000m   528.0000m
  gm         18.7787p    18.7787p   779.1183u   304.2138u   779.1210u
  gds        75.5892f    75.5894f    15.0614u    13.8399u    15.0623u
  gmb         6.9297p     6.9297p   310.5162u    95.4363u   310.5200u
  cdtot     191.8392a   191.8387a   749.8630a     1.4935f   749.8806a
  cgtot     533.5706a   533.5705a     3.8860f     8.8429f     3.8861f
  cstot     332.7130a   332.7130a     3.0994f     6.7963f     3.0994f
  cbtot     706.0059a   706.0055a     1.9484f     3.5722f     1.9484f
  cgs       101.9352a   101.9352a     3.4395f     8.2367f     3.4395f
  cgd        74.1292a    74.1291a   373.2969a   782.5685a   373.3132a



 subckt    xword1.xdr  xword1.xdr  xword2.xdr  xword2.xdr  xword2.xdr
 element   9:msp2      9:mpc      10:ma1      10:ma2      10:msn1    
 model     0:pmos      0:nmos      0:nmos      0:nmos      0:nmos    
 region      Saturati      Cutoff      Cutoff      Cutoff    Saturati
  id       -352.2363u   -17.3057a   516.5759f   516.5757f   352.8441u
  ibs        -1.2188a    -1.0829p  -274.0060f  -274.0059f   9.905e-23
  ibd         1.9273p    -1.0927p    -1.0927p    -1.0927p    -1.0927p
  vgs        -1.9173    -31.3951m   -80.1744m   -80.1744m     1.0827 
  vds        -1.9173    -21.2500u   808.7631m   808.7525m     1.0827 
  vbs         0.         -1.0827   -273.9822m  -273.9822m     0.     
  vth      -415.1256m   723.9671m   543.1827m   543.1827m   468.3784m
  vdsat      -1.2074     41.7292m    41.1288m    41.1288m   433.6417m
  vod        -1.5021   -755.3622m  -623.3571m  -623.3571m   614.3669m
  beta      387.7439u     5.3539m     1.0715m     1.0715m     3.1608m
  gam eff   488.0000m   528.0000m   528.0000m   528.0000m   528.0000m
  gm        304.2141u   482.9696a    13.2810p    13.2810p   779.1234u
  gds        13.8400u   814.1582f    52.7753f    52.7754f    15.0624u
